
T1630 000:609 SEGGER J-Link V4.90 Log File (0001ms, 0264ms total)
T1630 000:609 DLL Compiled: Jul 28 2014 10:35:20 (0001ms, 0264ms total)
T1630 000:609 Logging started @ 2017-04-30 22:02 (0001ms, 0264ms total)
T1630 000:610 JLINK_SetWarnOutHandler(...) (0000ms, 0264ms total)
T1630 000:610 JLINK_OpenEx(...)
Firmware: J-Link ARM-OB STM32 compiled Aug 22 2012 19:52:04
Hardware: V7.00
S/N: 20090928
Feature(s): RDI,FlashDL,FlashBP,JFlash,GDBFull  returns O.K. (0263ms, 0527ms total)
T1630 000:873 JLINK_SetErrorOutHandler(...) (0000ms, 0527ms total)
T1630 000:873 JLINK_ExecCommand("ProjectFile = "F:\git\AirDwing\Nymph\Project\JLinkSettings.ini"", ...)Device "UNSPECIFIED" selected (0 KB flash, 0 KB RAM).  returns 0x00 (0009ms, 0536ms total)
T1630 000:901 JLINK_ExecCommand("Device = STM32F407VETx", ...)Device "UNSPECIFIED" selected (0 KB flash, 0 KB RAM).  returns 0x00 (0018ms, 0554ms total)
T1630 000:919 JLINK_ExecCommand("DisableConnectionTimeout", ...)  returns 0x01 (0000ms, 0554ms total)
T1630 000:919 JLINK_GetHardwareVersion()  returns 0x11170 (0000ms, 0554ms total)
T1630 000:919 JLINK_GetDLLVersion()  returns 49000 (0000ms, 0554ms total)
T1630 000:919 JLINK_GetFirmwareString(...) (0000ms, 0554ms total)
T1630 000:950 JLINK_GetDLLVersion()  returns 49000 (0000ms, 0554ms total)
T1630 000:950 JLINK_GetCompileDateTime() (0000ms, 0554ms total)
T1630 000:956 JLINK_GetFirmwareString(...) (0001ms, 0555ms total)
T1630 000:963 JLINK_GetHardwareVersion()  returns 0x11170 (0001ms, 0556ms total)
T1630 000:990 JLINK_TIF_Select(JLINKARM_TIF_SWD)  returns 0x00 (0001ms, 0557ms total)
T1630 000:991 JLINK_SetSpeed(20000) (0000ms, 0557ms total)
T1630 000:991 JLINK_GetId() >0x108 TIF>Found SWD-DP with ID 0x2BA01477 >0x0D TIF> >0x21 TIF> >0x0D TIF> >0x28 TIF> >0x0D TIF> >0x28 TIF> >0x0D TIF> >0x21 TIF> >0x0D TIF> >0x28 TIF> >0x0D TIF> >0x21 TIF> >0x0D TIF> >0x21 TIF> >0x0D TIF> >0x21 TIF> >0x0D TIF> >0x21 TIF> >0x0D TIF> >0x28 TIF> >0x0D TIF> >0x28 TIF> >0x0D TIF> >0x21 TIF> >0x0D TIF> >0x28 TIF> >0x0D TIF> >0x28 TIF> >0x0D TIF> >0x28 TIF> >0x0D TIF> >0x21 TIF> >0x0D TIF> >0x21 TIF> >0x0D TIF> >0x28 TIF> >0x0D TIF> >0x21 TIF> >0x0D TIF>
 >0x21 TIF>Found Cortex-M4 r0p1, Little endian. -- CPU_WriteMem(4 bytes @ 0xE0002000) -- CPU_ReadMem(4 bytes @ 0xE000EDF0) -- CPU_ReadMem(4 bytes @ 0xE0002000)FPUnit: 6 code (BP) slots and 2 literal slots -- CPU_ReadMem(4 bytes @ 0xE000EDFC) -- CPU_ReadMem(4 bytes @ 0xE0001000) -- CPU_WriteMem(4 bytes @ 0xE0001000) -- CPU_ReadMem(4 bytes @ 0xE00FF010)TPIU fitted. -- CPU_ReadMem(4 bytes @ 0xE00FF014)ETM fitted. -- CPU_ReadMem(4 bytes @ 0xE00FF018) >0x0D TIF> >0x21 TIF>  returns 0x2BA01477
 (0051ms, 0608ms total)
T1630 001:042 JLINK_GetDLLVersion()  returns 49000 (0000ms, 0608ms total)
T1630 001:042 JLINK_CORE_GetFound()  returns 0xE0000FF (0000ms, 0608ms total)
T1630 001:050 JLINK_ReadMem (0xE00FF000, 0x0020 Bytes, ...) -- CPU is running -- CPU_ReadMem(32 bytes @ 0xE00FF000) - Data: 03 F0 F0 FF 03 20 F0 FF 03 30 F0 FF 03 10 F0 FF ...  returns 0x00 (0001ms, 0609ms total)
T1630 001:051 JLINK_ReadMem (0xE000EFF0, 0x0010 Bytes, ...) -- CPU is running -- CPU_ReadMem(16 bytes @ 0xE000EFF0) - Data: 0D 00 00 00 E0 00 00 00 05 00 00 00 B1 00 00 00  returns 0x00 (0001ms, 0610ms total)
T1630 001:052 JLINK_ReadMem (0xE000EFD0, 0x0020 Bytes, ...) -- CPU is running -- CPU_ReadMem(32 bytes @ 0xE000EFD0) - Data: 04 00 00 00 00 00 00 00 00 00 00 00 00 00 00 00 ...  returns 0x00 (0001ms, 0611ms total)
T1630 001:053 JLINK_ReadMem (0xE0001FF0, 0x0010 Bytes, ...) -- CPU is running -- CPU_ReadMem(16 bytes @ 0xE0001FF0) - Data: 0D 00 00 00 E0 00 00 00 05 00 00 00 B1 00 00 00  returns 0x00 (0000ms, 0611ms total)
T1630 001:053 JLINK_ReadMem (0xE0001FD0, 0x0020 Bytes, ...) -- CPU is running -- CPU_ReadMem(32 bytes @ 0xE0001FD0) - Data: 04 00 00 00 00 00 00 00 00 00 00 00 00 00 00 00 ...  returns 0x00 (0001ms, 0612ms total)
T1630 001:054 JLINK_ReadMem (0xE0002FF0, 0x0010 Bytes, ...) -- CPU is running -- CPU_ReadMem(16 bytes @ 0xE0002FF0) - Data: 0D 00 00 00 E0 00 00 00 05 00 00 00 B1 00 00 00  returns 0x00 (0001ms, 0613ms total)
T1630 001:055 JLINK_ReadMem (0xE0002FD0, 0x0020 Bytes, ...) -- CPU is running -- CPU_ReadMem(32 bytes @ 0xE0002FD0) - Data: 04 00 00 00 00 00 00 00 00 00 00 00 00 00 00 00 ...  returns 0x00 (0000ms, 0613ms total)
T1630 001:055 JLINK_ReadMem (0xE0000FF0, 0x0010 Bytes, ...) -- CPU is running -- CPU_ReadMem(16 bytes @ 0xE0000FF0) - Data: 0D 00 00 00 E0 00 00 00 05 00 00 00 B1 00 00 00  returns 0x00 (0001ms, 0614ms total)
T1630 001:056 JLINK_ReadMem (0xE0000FD0, 0x0020 Bytes, ...) -- CPU is running -- CPU_ReadMem(32 bytes @ 0xE0000FD0) - Data: 04 00 00 00 00 00 00 00 00 00 00 00 00 00 00 00 ...  returns 0x00 (0001ms, 0615ms total)
T1630 001:057 JLINK_ReadMem (0xE0040FF0, 0x0010 Bytes, ...) -- CPU is running -- CPU_ReadMem(16 bytes @ 0xE0040FF0) - Data: 0D 00 00 00 90 00 00 00 05 00 00 00 B1 00 00 00  returns 0x00 (0000ms, 0615ms total)
T1630 001:057 JLINK_ReadMem (0xE0040FD0, 0x0020 Bytes, ...) -- CPU is running -- CPU_ReadMem(32 bytes @ 0xE0040FD0) - Data: 04 00 00 00 00 00 00 00 00 00 00 00 00 00 00 00 ...  returns 0x00 (0001ms, 0616ms total)
T1630 001:058 JLINK_ReadMem (0xE0041FF0, 0x0010 Bytes, ...) -- CPU is running -- CPU_ReadMem(16 bytes @ 0xE0041FF0) - Data: 0D 00 00 00 90 00 00 00 05 00 00 00 B1 00 00 00  returns 0x00 (0001ms, 0617ms total)
T1630 001:059 JLINK_ReadMem (0xE0041FD0, 0x0020 Bytes, ...) -- CPU is running -- CPU_ReadMem(32 bytes @ 0xE0041FD0) - Data: 04 00 00 00 00 00 00 00 00 00 00 00 00 00 00 00 ...  returns 0x00 (0001ms, 0618ms total)
T1630 001:060 JLINK_ReadMemU32(0xE000EF40, 0x0001 Items, ...) -- CPU is running -- CPU_ReadMem(4 bytes @ 0xE000EF40) - Data: 21 00 11 10  returns 0x01 (0000ms, 0618ms total)
T1630 001:060 JLINK_ReadMemU32(0xE000EF44, 0x0001 Items, ...) -- CPU is running -- CPU_ReadMem(4 bytes @ 0xE000EF44) - Data: 11 00 00 11  returns 0x01 (0001ms, 0619ms total)
T1630 001:061 JLINK_ReadMemU32(0xE000ED00, 0x0001 Items, ...) -- CPU is running -- CPU_ReadMem(4 bytes @ 0xE000ED00) - Data: 41 C2 0F 41  returns 0x01 (0000ms, 0619ms total)
T1630 001:061 JLINK_SetResetType(JLINKARM_RESET_TYPE_NORMAL)  returns JLINKARM_RESET_TYPE_NORMAL (0000ms, 0619ms total)
T1630 001:061 JLINK_Reset() -- CPU is running -- CPU_WriteMem(4 bytes @ 0xE000EDF0) -- CPU is running -- CPU_WriteMem(4 bytes @ 0xE000EDFC) >0x35 TIF> -- CPU is running -- CPU_WriteMem(4 bytes @ 0xE000ED0C) -- CPU is running -- CPU_ReadMem(4 bytes @ 0xE000EDF0) -- CPU is running -- CPU_ReadMem(4 bytes @ 0xE000EDF0) -- CPU is running -- CPU_WriteMem(4 bytes @ 0xE000EDF0) -- CPU is running -- CPU_WriteMem(4 bytes @ 0xE000EDFC) -- CPU is running -- CPU_ReadMem(4 bytes @ 0xE000EDF0)
 -- CPU_WriteMem(4 bytes @ 0xE0002000) -- CPU_ReadMem(4 bytes @ 0xE000EDFC) -- CPU_ReadMem(4 bytes @ 0xE0001000) (0020ms, 0639ms total)
T1630 001:081 JLINK_Halt()  returns 0x00 (0000ms, 0639ms total)
T1630 001:081 JLINK_IsHalted()  returns TRUE (0000ms, 0639ms total)
T1630 001:081 JLINK_ReadMemU32(0xE000EDF0, 0x0001 Items, ...) -- CPU_ReadMem(4 bytes @ 0xE000EDF0) - Data: 03 00 03 00  returns 0x01 (0000ms, 0639ms total)
T1630 001:081 JLINK_WriteU32(0xE000EDF0, 0xA05F0003) -- CPU_WriteMem(4 bytes @ 0xE000EDF0)  returns 0x00 (0001ms, 0640ms total)
T1630 001:082 JLINK_WriteU32(0xE000EDFC, 0x01000000) -- CPU_WriteMem(4 bytes @ 0xE000EDFC)  returns 0x00 (0000ms, 0640ms total)
T1630 001:106 JLINK_GetHWStatus(...)  returns 0x00 (0001ms, 0641ms total)
T1630 001:125 JLINK_GetNumBPUnits(Type = 0xFFFFFF00)  returns 0x06 (0000ms, 0641ms total)
T1630 001:125 JLINK_GetNumBPUnits(Type = 0xF0)  returns 0x2000 (0000ms, 0641ms total)
T1630 001:125 JLINK_GetNumWPUnits()  returns 0x04 (0000ms, 0641ms total)
T1630 001:141 JLINK_GetSpeed()  returns 0xFA0 (0000ms, 0641ms total)
T1630 001:157 JLINK_ReadMemU32(0xE000E004, 0x0001 Items, ...) -- CPU_ReadMem(4 bytes @ 0xE000E004) - Data: 02 00 00 00  returns 0x01 (0000ms, 0641ms total)
T1630 001:157 JLINK_ReadMemU32(0xE000E004, 0x0001 Items, ...) -- CPU_ReadMem(4 bytes @ 0xE000E004) - Data: 02 00 00 00  returns 0x01 (0001ms, 0642ms total)
T1630 001:158 JLINK_WriteMem(0xE0001000, 0x001C Bytes, ...) - Data: 01 00 00 00 00 00 00 00 00 00 00 00 00 00 00 00 ... -- CPU_WriteMem(28 bytes @ 0xE0001000)  returns 0x1C (0001ms, 0643ms total)
T1630 001:159 JLINK_ReadMem (0xE0001000, 0x001C Bytes, ...) -- CPU_ReadMem(28 bytes @ 0xE0001000) - Data: 01 00 00 40 00 00 00 00 00 00 00 00 00 00 00 00 ...  returns 0x00 (0001ms, 0644ms total)
T1630 001:160 JLINK_Halt()  returns 0x00 (0000ms, 0644ms total)
T1630 001:160 JLINK_IsHalted()  returns TRUE (0000ms, 0644ms total)
T1630 001:236 JLINK_WriteMem(0x20000000, 0x0188 Bytes, ...) - Data: 00 BE 0A E0 0D 78 2D 06 68 40 08 24 40 00 00 D3 ... -- CPU_WriteMem(392 bytes @ 0x20000000)  returns 0x188 (0005ms, 0649ms total)
T1630 001:241 JLINK_WriteReg(R0, 0x08000000)  returns 0x00 (0000ms, 0649ms total)
T1630 001:241 JLINK_WriteReg(R1, 0x00B71B00)  returns 0x00 (0000ms, 0649ms total)
T1630 001:241 JLINK_WriteReg(R2, 0x00000001)  returns 0x00 (0000ms, 0649ms total)
T1630 001:241 JLINK_WriteReg(R3, 0x00000000)  returns 0x00 (0000ms, 0649ms total)
T1630 001:241 JLINK_WriteReg(R4, 0x00000000)  returns 0x00 (0000ms, 0649ms total)
T1630 001:241 JLINK_WriteReg(R5, 0x00000000)  returns 0x00 (0000ms, 0649ms total)
T1630 001:241 JLINK_WriteReg(R6, 0x00000000)  returns 0x00 (0000ms, 0649ms total)
T1630 001:241 JLINK_WriteReg(R7, 0x00000000)  returns 0x00 (0000ms, 0649ms total)
T1630 001:241 JLINK_WriteReg(R8, 0x00000000)  returns 0x00 (0000ms, 0649ms total)
T1630 001:241 JLINK_WriteReg(R9, 0x20000184)  returns 0x00 (0000ms, 0649ms total)
T1630 001:241 JLINK_WriteReg(R10, 0x00000000)  returns 0x00 (0000ms, 0649ms total)
T1630 001:241 JLINK_WriteReg(R11, 0x00000000)  returns 0x00 (0000ms, 0649ms total)
T1630 001:241 JLINK_WriteReg(R12, 0x00000000)  returns 0x00 (0000ms, 0649ms total)
T1630 001:241 JLINK_WriteReg(R13 (SP), 0x20001000)  returns 0x00 (0000ms, 0649ms total)
T1630 001:241 JLINK_WriteReg(R14, 0x20000001)  returns 0x00 (0000ms, 0649ms total)
T1630 001:241 JLINK_WriteReg(R15 (PC), 0x2000005E)  returns 0x00 (0000ms, 0649ms total)
T1630 001:241 JLINK_WriteReg(XPSR, 0x01000000)  returns 0x00 (0000ms, 0649ms total)
T1630 001:241 JLINK_WriteReg(MSP, 0x20001000)  returns 0x00 (0000ms, 0649ms total)
T1630 001:241 JLINK_WriteReg(PSP, 0x20001000)  returns 0x00 (0000ms, 0649ms total)
T1630 001:241 JLINK_WriteReg(CFBP, 0x00000000)  returns 0x00 (0000ms, 0649ms total)
T1630 001:241 JLINK_SetBPEx(Addr = 0x20000000, Type = 0xFFFFFFF2) -- CPU_ReadMem(4 bytes @ 0x20000000) -- CPU_WriteMem(4 bytes @ 0x20000000) -- CPU_ReadMem(4 bytes @ 0x20000000) -- CPU_WriteMem(4 bytes @ 0x20000000) -- CPU_ReadMem(2 bytes @ 0x20000000)  returns 0x00000001 (0003ms, 0652ms total)
T1630 001:244 JLINK_Go() -- CPU_WriteMem(2 bytes @ 0x20000000) -- CPU_WriteMem(4 bytes @ 0xE0002008) -- CPU_WriteMem(4 bytes @ 0xE000200C) -- CPU_WriteMem(4 bytes @ 0xE0002010) -- CPU_WriteMem(4 bytes @ 0xE0002014) -- CPU_WriteMem(4 bytes @ 0xE0002018) -- CPU_WriteMem(4 bytes @ 0xE000201C) -- CPU_WriteMem(4 bytes @ 0xE0001004) (0006ms, 0658ms total)
T1630 001:250 JLINK_IsHalted() -- CPU_ReadMem(2 bytes @ 0x20000000)  returns TRUE (0003ms, 0661ms total)
T1630 001:254 JLINK_ReadReg(R15 (PC))  returns 0x20000000 (0000ms, 0658ms total)
T1630 001:254 JLINK_ClrBPEx(BPHandle = 0x00000001)  returns 0x00 (0000ms, 0658ms total)
T1630 001:254 JLINK_ReadReg(R0)  returns 0x00000000 (0000ms, 0658ms total)
T1630 001:254 JLINK_WriteReg(R0, 0x08000000)  returns 0x00 (0000ms, 0658ms total)
T1630 001:254 JLINK_WriteReg(R1, 0x00004000)  returns 0x00 (0000ms, 0658ms total)
T1630 001:254 JLINK_WriteReg(R2, 0x000000FF)  returns 0x00 (0000ms, 0658ms total)
T1630 001:254 JLINK_WriteReg(R3, 0x00000000)  returns 0x00 (0000ms, 0658ms total)
T1630 001:254 JLINK_WriteReg(R4, 0x00000000)  returns 0x00 (0000ms, 0658ms total)
T1630 001:254 JLINK_WriteReg(R5, 0x00000000)  returns 0x00 (0000ms, 0658ms total)
T1630 001:254 JLINK_WriteReg(R6, 0x00000000)  returns 0x00 (0000ms, 0658ms total)
T1630 001:254 JLINK_WriteReg(R7, 0x00000000)  returns 0x00 (0000ms, 0658ms total)
T1630 001:254 JLINK_WriteReg(R8, 0x00000000)  returns 0x00 (0000ms, 0658ms total)
T1630 001:254 JLINK_WriteReg(R9, 0x20000184)  returns 0x00 (0000ms, 0658ms total)
T1630 001:254 JLINK_WriteReg(R10, 0x00000000)  returns 0x00 (0000ms, 0658ms total)
T1630 001:254 JLINK_WriteReg(R11, 0x00000000)  returns 0x00 (0000ms, 0658ms total)
T1630 001:254 JLINK_WriteReg(R12, 0x00000000)  returns 0x00 (0001ms, 0659ms total)
T1630 001:255 JLINK_WriteReg(R13 (SP), 0x20001000)  returns 0x00 (0000ms, 0659ms total)
T1630 001:255 JLINK_WriteReg(R14, 0x20000001)  returns 0x00 (0000ms, 0659ms total)
T1630 001:255 JLINK_WriteReg(R15 (PC), 0x20000020)  returns 0x00 (0000ms, 0659ms total)
T1630 001:255 JLINK_WriteReg(XPSR, 0x01000000)  returns 0x00 (0000ms, 0659ms total)
T1630 001:255 JLINK_WriteReg(MSP, 0x20001000)  returns 0x00 (0000ms, 0659ms total)
T1630 001:255 JLINK_WriteReg(PSP, 0x20001000)  returns 0x00 (0000ms, 0659ms total)
T1630 001:255 JLINK_WriteReg(CFBP, 0x00000000)  returns 0x00 (0000ms, 0659ms total)
T1630 001:255 JLINK_SetBPEx(Addr = 0x20000000, Type = 0xFFFFFFF2)  returns 0x00000002 (0000ms, 0659ms total)
T1630 001:255 JLINK_Go() (0001ms, 0660ms total)
T1630 001:256 JLINK_IsHalted()  returns FALSE (0001ms, 0661ms total)
T1630 001:318 JLINK_IsHalted() -- CPU_ReadMem(2 bytes @ 0x20000000)  returns TRUE (0003ms, 0663ms total)
T1630 001:321 JLINK_ReadReg(R15 (PC))  returns 0x20000000 (0000ms, 0660ms total)
T1630 001:321 JLINK_ClrBPEx(BPHandle = 0x00000002)  returns 0x00 (0000ms, 0660ms total)
T1630 001:321 JLINK_ReadReg(R0)  returns 0x00000000 (0000ms, 0660ms total)
T1630 001:322 JLINK_WriteReg(R0, 0x08004000)  returns 0x00 (0000ms, 0660ms total)
T1630 001:322 JLINK_WriteReg(R1, 0x00004000)  returns 0x00 (0000ms, 0660ms total)
T1630 001:322 JLINK_WriteReg(R2, 0x000000FF)  returns 0x00 (0000ms, 0660ms total)
T1630 001:322 JLINK_WriteReg(R3, 0x00000000)  returns 0x00 (0000ms, 0660ms total)
T1630 001:322 JLINK_WriteReg(R4, 0x00000000)  returns 0x00 (0000ms, 0660ms total)
T1630 001:322 JLINK_WriteReg(R5, 0x00000000)  returns 0x00 (0000ms, 0660ms total)
T1630 001:322 JLINK_WriteReg(R6, 0x00000000)  returns 0x00 (0000ms, 0660ms total)
T1630 001:322 JLINK_WriteReg(R7, 0x00000000)  returns 0x00 (0000ms, 0660ms total)
T1630 001:322 JLINK_WriteReg(R8, 0x00000000)  returns 0x00 (0000ms, 0660ms total)
T1630 001:322 JLINK_WriteReg(R9, 0x20000184)  returns 0x00 (0000ms, 0660ms total)
T1630 001:322 JLINK_WriteReg(R10, 0x00000000)  returns 0x00 (0000ms, 0660ms total)
T1630 001:322 JLINK_WriteReg(R11, 0x00000000)  returns 0x00 (0000ms, 0660ms total)
T1630 001:322 JLINK_WriteReg(R12, 0x00000000)  returns 0x00 (0000ms, 0660ms total)
T1630 001:322 JLINK_WriteReg(R13 (SP), 0x20001000)  returns 0x00 (0000ms, 0660ms total)
T1630 001:322 JLINK_WriteReg(R14, 0x20000001)  returns 0x00 (0000ms, 0660ms total)
T1630 001:322 JLINK_WriteReg(R15 (PC), 0x20000020)  returns 0x00 (0000ms, 0660ms total)
T1630 001:322 JLINK_WriteReg(XPSR, 0x01000000)  returns 0x00 (0000ms, 0660ms total)
T1630 001:322 JLINK_WriteReg(MSP, 0x20001000)  returns 0x00 (0000ms, 0660ms total)
T1630 001:322 JLINK_WriteReg(PSP, 0x20001000)  returns 0x00 (0000ms, 0660ms total)
T1630 001:322 JLINK_WriteReg(CFBP, 0x00000000)  returns 0x00 (0000ms, 0660ms total)
T1630 001:322 JLINK_SetBPEx(Addr = 0x20000000, Type = 0xFFFFFFF2)  returns 0x00000003 (0000ms, 0660ms total)
T1630 001:322 JLINK_Go() (0002ms, 0662ms total)
T1630 001:324 JLINK_IsHalted()  returns FALSE (0000ms, 0662ms total)
T1630 001:328 JLINK_IsHalted()  returns FALSE (0000ms, 0662ms total)
T1630 001:330 JLINK_IsHalted()  returns FALSE (0000ms, 0662ms total)
T1630 001:332 JLINK_IsHalted()  returns FALSE (0000ms, 0662ms total)
T1630 001:334 JLINK_IsHalted()  returns FALSE (0000ms, 0662ms total)
T1630 001:336 JLINK_IsHalted()  returns FALSE (0000ms, 0662ms total)
T1630 001:338 JLINK_IsHalted()  returns FALSE (0000ms, 0662ms total)
T1630 001:340 JLINK_IsHalted() -- CPU_ReadMem(2 bytes @ 0x20000000)  returns TRUE (0003ms, 0665ms total)
T1630 001:343 JLINK_ReadReg(R15 (PC))  returns 0x20000000 (0000ms, 0662ms total)
T1630 001:343 JLINK_ClrBPEx(BPHandle = 0x00000003)  returns 0x00 (0000ms, 0662ms total)
T1630 001:343 JLINK_ReadReg(R0)  returns 0x00000000 (0000ms, 0662ms total)
T1630 001:344 JLINK_WriteReg(R0, 0x08008000)  returns 0x00 (0000ms, 0662ms total)
T1630 001:344 JLINK_WriteReg(R1, 0x00004000)  returns 0x00 (0000ms, 0662ms total)
T1630 001:344 JLINK_WriteReg(R2, 0x000000FF)  returns 0x00 (0000ms, 0662ms total)
T1630 001:344 JLINK_WriteReg(R3, 0x00000000)  returns 0x00 (0000ms, 0662ms total)
T1630 001:344 JLINK_WriteReg(R4, 0x00000000)  returns 0x00 (0000ms, 0662ms total)
T1630 001:344 JLINK_WriteReg(R5, 0x00000000)  returns 0x00 (0000ms, 0662ms total)
T1630 001:344 JLINK_WriteReg(R6, 0x00000000)  returns 0x00 (0000ms, 0662ms total)
T1630 001:344 JLINK_WriteReg(R7, 0x00000000)  returns 0x00 (0000ms, 0662ms total)
T1630 001:344 JLINK_WriteReg(R8, 0x00000000)  returns 0x00 (0000ms, 0662ms total)
T1630 001:344 JLINK_WriteReg(R9, 0x20000184)  returns 0x00 (0000ms, 0662ms total)
T1630 001:344 JLINK_WriteReg(R10, 0x00000000)  returns 0x00 (0000ms, 0662ms total)
T1630 001:344 JLINK_WriteReg(R11, 0x00000000)  returns 0x00 (0000ms, 0662ms total)
T1630 001:344 JLINK_WriteReg(R12, 0x00000000)  returns 0x00 (0000ms, 0662ms total)
T1630 001:344 JLINK_WriteReg(R13 (SP), 0x20001000)  returns 0x00 (0000ms, 0662ms total)
T1630 001:344 JLINK_WriteReg(R14, 0x20000001)  returns 0x00 (0000ms, 0662ms total)
T1630 001:344 JLINK_WriteReg(R15 (PC), 0x20000020)  returns 0x00 (0000ms, 0662ms total)
T1630 001:344 JLINK_WriteReg(XPSR, 0x01000000)  returns 0x00 (0001ms, 0663ms total)
T1630 001:345 JLINK_WriteReg(MSP, 0x20001000)  returns 0x00 (0000ms, 0663ms total)
T1630 001:345 JLINK_WriteReg(PSP, 0x20001000)  returns 0x00 (0000ms, 0663ms total)
T1630 001:345 JLINK_WriteReg(CFBP, 0x00000000)  returns 0x00 (0000ms, 0663ms total)
T1630 001:345 JLINK_SetBPEx(Addr = 0x20000000, Type = 0xFFFFFFF2)  returns 0x00000004 (0000ms, 0663ms total)
T1630 001:345 JLINK_Go() (0001ms, 0664ms total)
T1630 001:346 JLINK_IsHalted()  returns FALSE (0001ms, 0665ms total)
T1630 001:349 JLINK_IsHalted()  returns FALSE (0000ms, 0664ms total)
T1630 001:351 JLINK_IsHalted()  returns FALSE (0000ms, 0664ms total)
T1630 001:353 JLINK_IsHalted()  returns FALSE (0000ms, 0664ms total)
T1630 001:355 JLINK_IsHalted()  returns FALSE (0000ms, 0664ms total)
T1630 001:357 JLINK_IsHalted()  returns FALSE (0000ms, 0664ms total)
T1630 001:360 JLINK_IsHalted()  returns FALSE (0000ms, 0664ms total)
T1630 001:362 JLINK_IsHalted() -- CPU_ReadMem(2 bytes @ 0x20000000)  returns TRUE (0003ms, 0667ms total)
T1630 001:365 JLINK_ReadReg(R15 (PC))  returns 0x20000000 (0000ms, 0664ms total)
T1630 001:365 JLINK_ClrBPEx(BPHandle = 0x00000004)  returns 0x00 (0000ms, 0664ms total)
T1630 001:365 JLINK_ReadReg(R0)  returns 0x00000000 (0000ms, 0664ms total)
T1630 001:366 JLINK_WriteReg(R0, 0x0800C000)  returns 0x00 (0000ms, 0664ms total)
T1630 001:366 JLINK_WriteReg(R1, 0x00004000)  returns 0x00 (0000ms, 0664ms total)
T1630 001:366 JLINK_WriteReg(R2, 0x000000FF)  returns 0x00 (0000ms, 0664ms total)
T1630 001:366 JLINK_WriteReg(R3, 0x00000000)  returns 0x00 (0000ms, 0664ms total)
T1630 001:366 JLINK_WriteReg(R4, 0x00000000)  returns 0x00 (0000ms, 0664ms total)
T1630 001:366 JLINK_WriteReg(R5, 0x00000000)  returns 0x00 (0000ms, 0664ms total)
T1630 001:366 JLINK_WriteReg(R6, 0x00000000)  returns 0x00 (0000ms, 0664ms total)
T1630 001:366 JLINK_WriteReg(R7, 0x00000000)  returns 0x00 (0000ms, 0664ms total)
T1630 001:366 JLINK_WriteReg(R8, 0x00000000)  returns 0x00 (0000ms, 0664ms total)
T1630 001:366 JLINK_WriteReg(R9, 0x20000184)  returns 0x00 (0000ms, 0664ms total)
T1630 001:366 JLINK_WriteReg(R10, 0x00000000)  returns 0x00 (0000ms, 0664ms total)
T1630 001:366 JLINK_WriteReg(R11, 0x00000000)  returns 0x00 (0000ms, 0664ms total)
T1630 001:366 JLINK_WriteReg(R12, 0x00000000)  returns 0x00 (0000ms, 0664ms total)
T1630 001:366 JLINK_WriteReg(R13 (SP), 0x20001000)  returns 0x00 (0000ms, 0664ms total)
T1630 001:366 JLINK_WriteReg(R14, 0x20000001)  returns 0x00 (0000ms, 0664ms total)
T1630 001:366 JLINK_WriteReg(R15 (PC), 0x20000020)  returns 0x00 (0000ms, 0664ms total)
T1630 001:366 JLINK_WriteReg(XPSR, 0x01000000)  returns 0x00 (0000ms, 0664ms total)
T1630 001:366 JLINK_WriteReg(MSP, 0x20001000)  returns 0x00 (0000ms, 0664ms total)
T1630 001:366 JLINK_WriteReg(PSP, 0x20001000)  returns 0x00 (0000ms, 0664ms total)
T1630 001:366 JLINK_WriteReg(CFBP, 0x00000000)  returns 0x00 (0000ms, 0664ms total)
T1630 001:366 JLINK_SetBPEx(Addr = 0x20000000, Type = 0xFFFFFFF2)  returns 0x00000005 (0000ms, 0664ms total)
T1630 001:366 JLINK_Go() (0002ms, 0666ms total)
T1630 001:368 JLINK_IsHalted()  returns FALSE (0001ms, 0667ms total)
T1630 001:371 JLINK_IsHalted()  returns FALSE (0000ms, 0666ms total)
T1630 001:373 JLINK_IsHalted()  returns FALSE (0000ms, 0666ms total)
T1630 001:375 JLINK_IsHalted()  returns FALSE (0000ms, 0666ms total)
T1630 001:384 JLINK_IsHalted() -- CPU_ReadMem(2 bytes @ 0x20000000)  returns TRUE (0003ms, 0669ms total)
T1630 001:387 JLINK_ReadReg(R15 (PC))  returns 0x20000000 (0000ms, 0666ms total)
T1630 001:387 JLINK_ClrBPEx(BPHandle = 0x00000005)  returns 0x00 (0000ms, 0666ms total)
T1630 001:387 JLINK_ReadReg(R0)  returns 0x00000000 (0000ms, 0666ms total)
T1630 001:388 JLINK_WriteReg(R0, 0x08010000)  returns 0x00 (0000ms, 0666ms total)
T1630 001:388 JLINK_WriteReg(R1, 0x00010000)  returns 0x00 (0000ms, 0666ms total)
T1630 001:388 JLINK_WriteReg(R2, 0x000000FF)  returns 0x00 (0000ms, 0666ms total)
T1630 001:388 JLINK_WriteReg(R3, 0x00000000)  returns 0x00 (0000ms, 0666ms total)
T1630 001:388 JLINK_WriteReg(R4, 0x00000000)  returns 0x00 (0000ms, 0666ms total)
T1630 001:388 JLINK_WriteReg(R5, 0x00000000)  returns 0x00 (0000ms, 0666ms total)
T1630 001:388 JLINK_WriteReg(R6, 0x00000000)  returns 0x00 (0000ms, 0666ms total)
T1630 001:388 JLINK_WriteReg(R7, 0x00000000)  returns 0x00 (0000ms, 0666ms total)
T1630 001:388 JLINK_WriteReg(R8, 0x00000000)  returns 0x00 (0000ms, 0666ms total)
T1630 001:388 JLINK_WriteReg(R9, 0x20000184)  returns 0x00 (0000ms, 0666ms total)
T1630 001:388 JLINK_WriteReg(R10, 0x00000000)  returns 0x00 (0000ms, 0666ms total)
T1630 001:388 JLINK_WriteReg(R11, 0x00000000)  returns 0x00 (0000ms, 0666ms total)
T1630 001:388 JLINK_WriteReg(R12, 0x00000000)  returns 0x00 (0000ms, 0666ms total)
T1630 001:388 JLINK_WriteReg(R13 (SP), 0x20001000)  returns 0x00 (0000ms, 0666ms total)
T1630 001:388 JLINK_WriteReg(R14, 0x20000001)  returns 0x00 (0000ms, 0666ms total)
T1630 001:388 JLINK_WriteReg(R15 (PC), 0x20000020)  returns 0x00 (0000ms, 0666ms total)
T1630 001:388 JLINK_WriteReg(XPSR, 0x01000000)  returns 0x00 (0000ms, 0666ms total)
T1630 001:388 JLINK_WriteReg(MSP, 0x20001000)  returns 0x00 (0000ms, 0666ms total)
T1630 001:388 JLINK_WriteReg(PSP, 0x20001000)  returns 0x00 (0000ms, 0666ms total)
T1630 001:388 JLINK_WriteReg(CFBP, 0x00000000)  returns 0x00 (0000ms, 0666ms total)
T1630 001:388 JLINK_SetBPEx(Addr = 0x20000000, Type = 0xFFFFFFF2)  returns 0x00000006 (0001ms, 0667ms total)
T1630 001:389 JLINK_Go() (0001ms, 0668ms total)
T1630 001:390 JLINK_IsHalted()  returns FALSE (0000ms, 0668ms total)
T1630 001:393 JLINK_IsHalted()  returns FALSE (0000ms, 0668ms total)
T1630 001:395 JLINK_IsHalted()  returns FALSE (0000ms, 0668ms total)
T1630 001:397 JLINK_IsHalted()  returns FALSE (0000ms, 0668ms total)
T1630 001:399 JLINK_IsHalted()  returns FALSE (0000ms, 0668ms total)
T1630 001:401 JLINK_IsHalted()  returns FALSE (0000ms, 0668ms total)
T1630 001:403 JLINK_IsHalted()  returns FALSE (0000ms, 0668ms total)
T1630 001:405 JLINK_IsHalted()  returns FALSE (0000ms, 0668ms total)
T1630 001:407 JLINK_IsHalted()  returns FALSE (0000ms, 0668ms total)
T1630 001:409 JLINK_IsHalted()  returns FALSE (0000ms, 0668ms total)
T1630 001:411 JLINK_IsHalted()  returns FALSE (0000ms, 0668ms total)
T1630 001:413 JLINK_IsHalted()  returns FALSE (0000ms, 0668ms total)
T1630 001:415 JLINK_IsHalted()  returns FALSE (0000ms, 0668ms total)
T1630 001:417 JLINK_IsHalted()  returns FALSE (0000ms, 0668ms total)
T1630 001:419 JLINK_IsHalted()  returns FALSE (0000ms, 0668ms total)
T1630 001:421 JLINK_IsHalted()  returns FALSE (0000ms, 0668ms total)
T1630 001:423 JLINK_IsHalted()  returns FALSE (0000ms, 0668ms total)
T1630 001:425 JLINK_IsHalted()  returns FALSE (0000ms, 0668ms total)
T1630 001:427 JLINK_IsHalted()  returns FALSE (0000ms, 0668ms total)
T1630 001:429 JLINK_IsHalted()  returns FALSE (0000ms, 0668ms total)
T1630 001:431 JLINK_IsHalted()  returns FALSE (0000ms, 0668ms total)
T1630 001:433 JLINK_IsHalted()  returns FALSE (0000ms, 0668ms total)
T1630 001:435 JLINK_IsHalted()  returns FALSE (0000ms, 0668ms total)
T1630 001:437 JLINK_IsHalted()  returns FALSE (0000ms, 0668ms total)
T1630 001:439 JLINK_IsHalted()  returns FALSE (0000ms, 0668ms total)
T1630 001:446 JLINK_IsHalted()  returns FALSE (0000ms, 0668ms total)
T1630 001:448 JLINK_IsHalted() -- CPU_ReadMem(2 bytes @ 0x20000000)  returns TRUE (0003ms, 0671ms total)
T1630 001:451 JLINK_ReadReg(R15 (PC))  returns 0x20000000 (0000ms, 0668ms total)
T1630 001:451 JLINK_ClrBPEx(BPHandle = 0x00000006)  returns 0x00 (0000ms, 0668ms total)
T1630 001:451 JLINK_ReadReg(R0)  returns 0x00000000 (0000ms, 0668ms total)
T1630 001:452 JLINK_WriteReg(R0, 0x00000001)  returns 0x00 (0000ms, 0668ms total)
T1630 001:452 JLINK_WriteReg(R1, 0x00010000)  returns 0x00 (0000ms, 0668ms total)
T1630 001:452 JLINK_WriteReg(R2, 0x000000FF)  returns 0x00 (0000ms, 0668ms total)
T1630 001:452 JLINK_WriteReg(R3, 0x00000000)  returns 0x00 (0000ms, 0668ms total)
T1630 001:452 JLINK_WriteReg(R4, 0x00000000)  returns 0x00 (0000ms, 0668ms total)
T1630 001:452 JLINK_WriteReg(R5, 0x00000000)  returns 0x00 (0000ms, 0668ms total)
T1630 001:452 JLINK_WriteReg(R6, 0x00000000)  returns 0x00 (0000ms, 0668ms total)
T1630 001:452 JLINK_WriteReg(R7, 0x00000000)  returns 0x00 (0000ms, 0668ms total)
T1630 001:452 JLINK_WriteReg(R8, 0x00000000)  returns 0x00 (0000ms, 0668ms total)
T1630 001:452 JLINK_WriteReg(R9, 0x20000184)  returns 0x00 (0000ms, 0668ms total)
T1630 001:452 JLINK_WriteReg(R10, 0x00000000)  returns 0x00 (0000ms, 0668ms total)
T1630 001:452 JLINK_WriteReg(R11, 0x00000000)  returns 0x00 (0000ms, 0668ms total)
T1630 001:452 JLINK_WriteReg(R12, 0x00000000)  returns 0x00 (0000ms, 0668ms total)
T1630 001:452 JLINK_WriteReg(R13 (SP), 0x20001000)  returns 0x00 (0000ms, 0668ms total)
T1630 001:452 JLINK_WriteReg(R14, 0x20000001)  returns 0x00 (0000ms, 0668ms total)
T1630 001:452 JLINK_WriteReg(R15 (PC), 0x2000008C)  returns 0x00 (0000ms, 0668ms total)
T1630 001:452 JLINK_WriteReg(XPSR, 0x01000000)  returns 0x00 (0000ms, 0668ms total)
T1630 001:452 JLINK_WriteReg(MSP, 0x20001000)  returns 0x00 (0000ms, 0668ms total)
T1630 001:452 JLINK_WriteReg(PSP, 0x20001000)  returns 0x00 (0000ms, 0668ms total)
T1630 001:452 JLINK_WriteReg(CFBP, 0x00000000)  returns 0x00 (0000ms, 0668ms total)
T1630 001:452 JLINK_SetBPEx(Addr = 0x20000000, Type = 0xFFFFFFF2)  returns 0x00000007 (0000ms, 0668ms total)
T1630 001:452 JLINK_Go() (0002ms, 0670ms total)
T1630 001:454 JLINK_IsHalted() -- CPU_ReadMem(2 bytes @ 0x20000000)  returns TRUE (0003ms, 0673ms total)
T1630 001:457 JLINK_ReadReg(R15 (PC))  returns 0x20000000 (0000ms, 0670ms total)
T1630 001:457 JLINK_ClrBPEx(BPHandle = 0x00000007)  returns 0x00 (0000ms, 0670ms total)
T1630 001:457 JLINK_ReadReg(R0)  returns 0x00000000 (0000ms, 0670ms total)
T1630 001:520 JLINK_WriteMem(0x20000000, 0x0188 Bytes, ...) - Data: 00 BE 0A E0 0D 78 2D 06 68 40 08 24 40 00 00 D3 ... -- CPU_WriteMem(392 bytes @ 0x20000000)  returns 0x188 (0005ms, 0675ms total)
T1630 001:525 JLINK_WriteReg(R0, 0x08000000)  returns 0x00 (0000ms, 0675ms total)
T1630 001:525 JLINK_WriteReg(R1, 0x00B71B00)  returns 0x00 (0000ms, 0675ms total)
T1630 001:525 JLINK_WriteReg(R2, 0x00000002)  returns 0x00 (0000ms, 0675ms total)
T1630 001:525 JLINK_WriteReg(R3, 0x00000000)  returns 0x00 (0000ms, 0675ms total)
T1630 001:525 JLINK_WriteReg(R4, 0x00000000)  returns 0x00 (0000ms, 0675ms total)
T1630 001:525 JLINK_WriteReg(R5, 0x00000000)  returns 0x00 (0001ms, 0676ms total)
T1630 001:526 JLINK_WriteReg(R6, 0x00000000)  returns 0x00 (0000ms, 0676ms total)
T1630 001:526 JLINK_WriteReg(R7, 0x00000000)  returns 0x00 (0000ms, 0676ms total)
T1630 001:526 JLINK_WriteReg(R8, 0x00000000)  returns 0x00 (0000ms, 0676ms total)
T1630 001:526 JLINK_WriteReg(R9, 0x20000184)  returns 0x00 (0000ms, 0676ms total)
T1630 001:526 JLINK_WriteReg(R10, 0x00000000)  returns 0x00 (0000ms, 0676ms total)
T1630 001:526 JLINK_WriteReg(R11, 0x00000000)  returns 0x00 (0000ms, 0676ms total)
T1630 001:526 JLINK_WriteReg(R12, 0x00000000)  returns 0x00 (0000ms, 0676ms total)
T1630 001:526 JLINK_WriteReg(R13 (SP), 0x20001000)  returns 0x00 (0000ms, 0676ms total)
T1630 001:526 JLINK_WriteReg(R14, 0x20000001)  returns 0x00 (0000ms, 0676ms total)
T1630 001:526 JLINK_WriteReg(R15 (PC), 0x2000005E)  returns 0x00 (0000ms, 0676ms total)
T1630 001:526 JLINK_WriteReg(XPSR, 0x01000000)  returns 0x00 (0000ms, 0676ms total)
T1630 001:526 JLINK_WriteReg(MSP, 0x20001000)  returns 0x00 (0000ms, 0676ms total)
T1630 001:526 JLINK_WriteReg(PSP, 0x20001000)  returns 0x00 (0000ms, 0676ms total)
T1630 001:526 JLINK_WriteReg(CFBP, 0x00000000)  returns 0x00 (0000ms, 0676ms total)
T1630 001:526 JLINK_SetBPEx(Addr = 0x20000000, Type = 0xFFFFFFF2) -- CPU_ReadMem(4 bytes @ 0x20000000) -- CPU_WriteMem(4 bytes @ 0x20000000) -- CPU_ReadMem(4 bytes @ 0x20000000) -- CPU_WriteMem(4 bytes @ 0x20000000) -- CPU_ReadMem(2 bytes @ 0x20000000)  returns 0x00000008 (0002ms, 0678ms total)
T1630 001:528 JLINK_Go() -- CPU_WriteMem(2 bytes @ 0x20000000) (0002ms, 0680ms total)
T1630 001:530 JLINK_IsHalted() -- CPU_ReadMem(2 bytes @ 0x20000000)  returns TRUE (0004ms, 0684ms total)
T1630 001:534 JLINK_ReadReg(R15 (PC))  returns 0x20000000 (0000ms, 0680ms total)
T1630 001:534 JLINK_ClrBPEx(BPHandle = 0x00000008)  returns 0x00 (0000ms, 0680ms total)
T1630 001:534 JLINK_ReadReg(R0)  returns 0x00000000 (0000ms, 0680ms total)
T1630 001:534 JLINK_WriteMem(0x20000188, 0x0400 Bytes, ...) - Data: 00 7C 00 20 8D 44 00 08 95 44 00 08 97 44 00 08 ... -- CPU_WriteMem(1024 bytes @ 0x20000188)  returns 0x400 (0013ms, 0693ms total)
T1630 001:547 JLINK_WriteReg(R0, 0x08000000)  returns 0x00 (0000ms, 0693ms total)
T1630 001:547 JLINK_WriteReg(R1, 0x00000400)  returns 0x00 (0000ms, 0693ms total)
T1630 001:547 JLINK_WriteReg(R2, 0x20000188)  returns 0x00 (0000ms, 0693ms total)
T1630 001:547 JLINK_WriteReg(R3, 0x00000000)  returns 0x00 (0000ms, 0693ms total)
T1630 001:547 JLINK_WriteReg(R4, 0x00000000)  returns 0x00 (0000ms, 0693ms total)
T1630 001:547 JLINK_WriteReg(R5, 0x00000000)  returns 0x00 (0000ms, 0693ms total)
T1630 001:547 JLINK_WriteReg(R6, 0x00000000)  returns 0x00 (0000ms, 0693ms total)
T1630 001:547 JLINK_WriteReg(R7, 0x00000000)  returns 0x00 (0000ms, 0693ms total)
T1630 001:547 JLINK_WriteReg(R8, 0x00000000)  returns 0x00 (0000ms, 0693ms total)
T1630 001:547 JLINK_WriteReg(R9, 0x20000184)  returns 0x00 (0000ms, 0693ms total)
T1630 001:547 JLINK_WriteReg(R10, 0x00000000)  returns 0x00 (0000ms, 0693ms total)
T1630 001:547 JLINK_WriteReg(R11, 0x00000000)  returns 0x00 (0000ms, 0693ms total)
T1630 001:547 JLINK_WriteReg(R12, 0x00000000)  returns 0x00 (0000ms, 0693ms total)
T1630 001:547 JLINK_WriteReg(R13 (SP), 0x20001000)  returns 0x00 (0000ms, 0693ms total)
T1630 001:547 JLINK_WriteReg(R14, 0x20000001)  returns 0x00 (0000ms, 0693ms total)
T1630 001:547 JLINK_WriteReg(R15 (PC), 0x20000112)  returns 0x00 (0000ms, 0693ms total)
T1630 001:547 JLINK_WriteReg(XPSR, 0x01000000)  returns 0x00 (0000ms, 0693ms total)
T1630 001:547 JLINK_WriteReg(MSP, 0x20001000)  returns 0x00 (0000ms, 0693ms total)
T1630 001:547 JLINK_WriteReg(PSP, 0x20001000)  returns 0x00 (0000ms, 0693ms total)
T1630 001:547 JLINK_WriteReg(CFBP, 0x00000000)  returns 0x00 (0000ms, 0693ms total)
T1630 001:547 JLINK_SetBPEx(Addr = 0x20000000, Type = 0xFFFFFFF2)  returns 0x00000009 (0000ms, 0693ms total)
T1630 001:547 JLINK_Go() (0002ms, 0695ms total)
T1630 001:549 JLINK_IsHalted()  returns FALSE (0000ms, 0695ms total)
T1630 001:558 JLINK_IsHalted() -- CPU_ReadMem(2 bytes @ 0x20000000)  returns TRUE (0003ms, 0698ms total)
T1630 001:561 JLINK_ReadReg(R15 (PC))  returns 0x20000000 (0000ms, 0695ms total)
T1630 001:561 JLINK_ClrBPEx(BPHandle = 0x00000009)  returns 0x00 (0000ms, 0695ms total)
T1630 001:561 JLINK_ReadReg(R0)  returns 0x00000000 (0001ms, 0696ms total)
T1630 001:562 JLINK_WriteMem(0x20000188, 0x0400 Bytes, ...) - Data: 40 7B 01 EB 00 20 F2 49 08 60 A4 48 01 7C C0 7B ... -- CPU_WriteMem(1024 bytes @ 0x20000188)  returns 0x400 (0012ms, 0708ms total)
T1630 001:575 JLINK_WriteReg(R0, 0x08000400)  returns 0x00 (0000ms, 0709ms total)
T1630 001:575 JLINK_WriteReg(R1, 0x00000400)  returns 0x00 (0000ms, 0709ms total)
T1630 001:575 JLINK_WriteReg(R2, 0x20000188)  returns 0x00 (0000ms, 0709ms total)
T1630 001:575 JLINK_WriteReg(R3, 0x00000000)  returns 0x00 (0000ms, 0709ms total)
T1630 001:575 JLINK_WriteReg(R4, 0x00000000)  returns 0x00 (0000ms, 0709ms total)
T1630 001:575 JLINK_WriteReg(R5, 0x00000000)  returns 0x00 (0000ms, 0709ms total)
T1630 001:575 JLINK_WriteReg(R6, 0x00000000)  returns 0x00 (0000ms, 0709ms total)
T1630 001:575 JLINK_WriteReg(R7, 0x00000000)  returns 0x00 (0000ms, 0709ms total)
T1630 001:575 JLINK_WriteReg(R8, 0x00000000)  returns 0x00 (0000ms, 0709ms total)
T1630 001:575 JLINK_WriteReg(R9, 0x20000184)  returns 0x00 (0000ms, 0709ms total)
T1630 001:575 JLINK_WriteReg(R10, 0x00000000)  returns 0x00 (0000ms, 0709ms total)
T1630 001:575 JLINK_WriteReg(R11, 0x00000000)  returns 0x00 (0000ms, 0709ms total)
T1630 001:575 JLINK_WriteReg(R12, 0x00000000)  returns 0x00 (0000ms, 0709ms total)
T1630 001:575 JLINK_WriteReg(R13 (SP), 0x20001000)  returns 0x00 (0000ms, 0709ms total)
T1630 001:575 JLINK_WriteReg(R14, 0x20000001)  returns 0x00 (0000ms, 0709ms total)
T1630 001:575 JLINK_WriteReg(R15 (PC), 0x20000112)  returns 0x00 (0000ms, 0709ms total)
T1630 001:575 JLINK_WriteReg(XPSR, 0x01000000)  returns 0x00 (0000ms, 0709ms total)
T1630 001:575 JLINK_WriteReg(MSP, 0x20001000)  returns 0x00 (0000ms, 0709ms total)
T1630 001:575 JLINK_WriteReg(PSP, 0x20001000)  returns 0x00 (0000ms, 0709ms total)
T1630 001:575 JLINK_WriteReg(CFBP, 0x00000000)  returns 0x00 (0000ms, 0709ms total)
T1630 001:575 JLINK_SetBPEx(Addr = 0x20000000, Type = 0xFFFFFFF2)  returns 0x0000000A (0000ms, 0709ms total)
T1630 001:575 JLINK_Go() (0002ms, 0711ms total)
T1630 001:577 JLINK_IsHalted()  returns FALSE (0000ms, 0711ms total)
T1630 001:580 JLINK_IsHalted()  returns FALSE (0000ms, 0711ms total)
T1630 001:582 JLINK_IsHalted() -- CPU_ReadMem(2 bytes @ 0x20000000)  returns TRUE (0003ms, 0714ms total)
T1630 001:585 JLINK_ReadReg(R15 (PC))  returns 0x20000000 (0000ms, 0711ms total)
T1630 001:585 JLINK_ClrBPEx(BPHandle = 0x0000000A)  returns 0x00 (0000ms, 0711ms total)
T1630 001:585 JLINK_ReadReg(R0)  returns 0x00000000 (0000ms, 0711ms total)
T1630 001:586 JLINK_WriteMem(0x20000188, 0x0400 Bytes, ...) - Data: 50 4D 31 30 3A 00 00 00 53 4F 32 3A 00 00 00 00 ... -- CPU_WriteMem(1024 bytes @ 0x20000188)  returns 0x400 (0012ms, 0723ms total)
T1630 001:598 JLINK_WriteReg(R0, 0x08000800)  returns 0x00 (0000ms, 0723ms total)
T1630 001:598 JLINK_WriteReg(R1, 0x00000400)  returns 0x00 (0000ms, 0723ms total)
T1630 001:598 JLINK_WriteReg(R2, 0x20000188)  returns 0x00 (0000ms, 0723ms total)
T1630 001:598 JLINK_WriteReg(R3, 0x00000000)  returns 0x00 (0000ms, 0723ms total)
T1630 001:598 JLINK_WriteReg(R4, 0x00000000)  returns 0x00 (0000ms, 0723ms total)
T1630 001:598 JLINK_WriteReg(R5, 0x00000000)  returns 0x00 (0000ms, 0723ms total)
T1630 001:598 JLINK_WriteReg(R6, 0x00000000)  returns 0x00 (0000ms, 0723ms total)
T1630 001:598 JLINK_WriteReg(R7, 0x00000000)  returns 0x00 (0000ms, 0723ms total)
T1630 001:598 JLINK_WriteReg(R8, 0x00000000)  returns 0x00 (0000ms, 0723ms total)
T1630 001:598 JLINK_WriteReg(R9, 0x20000184)  returns 0x00 (0000ms, 0723ms total)
T1630 001:598 JLINK_WriteReg(R10, 0x00000000)  returns 0x00 (0000ms, 0723ms total)
T1630 001:598 JLINK_WriteReg(R11, 0x00000000)  returns 0x00 (0000ms, 0723ms total)
T1630 001:598 JLINK_WriteReg(R12, 0x00000000)  returns 0x00 (0000ms, 0723ms total)
T1630 001:598 JLINK_WriteReg(R13 (SP), 0x20001000)  returns 0x00 (0000ms, 0723ms total)
T1630 001:598 JLINK_WriteReg(R14, 0x20000001)  returns 0x00 (0000ms, 0723ms total)
T1630 001:598 JLINK_WriteReg(R15 (PC), 0x20000112)  returns 0x00 (0000ms, 0723ms total)
T1630 001:598 JLINK_WriteReg(XPSR, 0x01000000)  returns 0x00 (0000ms, 0723ms total)
T1630 001:598 JLINK_WriteReg(MSP, 0x20001000)  returns 0x00 (0000ms, 0723ms total)
T1630 001:598 JLINK_WriteReg(PSP, 0x20001000)  returns 0x00 (0000ms, 0723ms total)
T1630 001:598 JLINK_WriteReg(CFBP, 0x00000000)  returns 0x00 (0000ms, 0723ms total)
T1630 001:598 JLINK_SetBPEx(Addr = 0x20000000, Type = 0xFFFFFFF2)  returns 0x0000000B (0000ms, 0723ms total)
T1630 001:598 JLINK_Go() (0002ms, 0725ms total)
T1630 001:600 JLINK_IsHalted()  returns FALSE (0001ms, 0726ms total)
T1630 001:607 JLINK_IsHalted() -- CPU_ReadMem(2 bytes @ 0x20000000)  returns TRUE (0003ms, 0728ms total)
T1630 001:610 JLINK_ReadReg(R15 (PC))  returns 0x20000000 (0000ms, 0725ms total)
T1630 001:610 JLINK_ClrBPEx(BPHandle = 0x0000000B)  returns 0x00 (0000ms, 0725ms total)
T1630 001:610 JLINK_ReadReg(R0)  returns 0x00000000 (0000ms, 0725ms total)
T1630 001:611 JLINK_WriteMem(0x20000188, 0x0400 Bytes, ...) - Data: 00 27 0D E0 32 48 C1 5D 32 48 03 F0 27 FA 00 BF ... -- CPU_WriteMem(1024 bytes @ 0x20000188)  returns 0x400 (0012ms, 0737ms total)
T1630 001:623 JLINK_WriteReg(R0, 0x08000C00)  returns 0x00 (0000ms, 0737ms total)
T1630 001:623 JLINK_WriteReg(R1, 0x00000400)  returns 0x00 (0000ms, 0737ms total)
T1630 001:623 JLINK_WriteReg(R2, 0x20000188)  returns 0x00 (0000ms, 0737ms total)
T1630 001:623 JLINK_WriteReg(R3, 0x00000000)  returns 0x00 (0000ms, 0737ms total)
T1630 001:623 JLINK_WriteReg(R4, 0x00000000)  returns 0x00 (0000ms, 0737ms total)
T1630 001:623 JLINK_WriteReg(R5, 0x00000000)  returns 0x00 (0000ms, 0737ms total)
T1630 001:623 JLINK_WriteReg(R6, 0x00000000)  returns 0x00 (0000ms, 0737ms total)
T1630 001:623 JLINK_WriteReg(R7, 0x00000000)  returns 0x00 (0000ms, 0737ms total)
T1630 001:623 JLINK_WriteReg(R8, 0x00000000)  returns 0x00 (0000ms, 0737ms total)
T1630 001:623 JLINK_WriteReg(R9, 0x20000184)  returns 0x00 (0000ms, 0737ms total)
T1630 001:623 JLINK_WriteReg(R10, 0x00000000)  returns 0x00 (0000ms, 0737ms total)
T1630 001:623 JLINK_WriteReg(R11, 0x00000000)  returns 0x00 (0000ms, 0737ms total)
T1630 001:623 JLINK_WriteReg(R12, 0x00000000)  returns 0x00 (0000ms, 0737ms total)
T1630 001:623 JLINK_WriteReg(R13 (SP), 0x20001000)  returns 0x00 (0000ms, 0737ms total)
T1630 001:623 JLINK_WriteReg(R14, 0x20000001)  returns 0x00 (0000ms, 0737ms total)
T1630 001:623 JLINK_WriteReg(R15 (PC), 0x20000112)  returns 0x00 (0001ms, 0738ms total)
T1630 001:624 JLINK_WriteReg(XPSR, 0x01000000)  returns 0x00 (0000ms, 0738ms total)
T1630 001:624 JLINK_WriteReg(MSP, 0x20001000)  returns 0x00 (0000ms, 0738ms total)
T1630 001:624 JLINK_WriteReg(PSP, 0x20001000)  returns 0x00 (0000ms, 0738ms total)
T1630 001:624 JLINK_WriteReg(CFBP, 0x00000000)  returns 0x00 (0000ms, 0738ms total)
T1630 001:624 JLINK_SetBPEx(Addr = 0x20000000, Type = 0xFFFFFFF2)  returns 0x0000000C (0000ms, 0738ms total)
T1630 001:624 JLINK_Go() (0001ms, 0739ms total)
T1630 001:625 JLINK_IsHalted()  returns FALSE (0001ms, 0740ms total)
T1630 001:628 JLINK_IsHalted()  returns FALSE (0000ms, 0739ms total)
T1630 001:630 JLINK_IsHalted() -- CPU_ReadMem(2 bytes @ 0x20000000)  returns TRUE (0003ms, 0742ms total)
T1630 001:633 JLINK_ReadReg(R15 (PC))  returns 0x20000000 (0000ms, 0739ms total)
T1630 001:633 JLINK_ClrBPEx(BPHandle = 0x0000000C)  returns 0x00 (0000ms, 0739ms total)
T1630 001:633 JLINK_ReadReg(R0)  returns 0x00000000 (0000ms, 0739ms total)
T1630 001:634 JLINK_WriteMem(0x20000188, 0x0400 Bytes, ...) - Data: 60 7A FF F7 55 FF 10 EE 10 0A A8 49 C1 F8 01 00 ... -- CPU_WriteMem(1024 bytes @ 0x20000188)  returns 0x400 (0012ms, 0751ms total)
T1630 001:646 JLINK_WriteReg(R0, 0x08001000)  returns 0x00 (0000ms, 0751ms total)
T1630 001:646 JLINK_WriteReg(R1, 0x00000400)  returns 0x00 (0000ms, 0751ms total)
T1630 001:646 JLINK_WriteReg(R2, 0x20000188)  returns 0x00 (0000ms, 0751ms total)
T1630 001:646 JLINK_WriteReg(R3, 0x00000000)  returns 0x00 (0000ms, 0751ms total)
T1630 001:646 JLINK_WriteReg(R4, 0x00000000)  returns 0x00 (0000ms, 0751ms total)
T1630 001:646 JLINK_WriteReg(R5, 0x00000000)  returns 0x00 (0000ms, 0751ms total)
T1630 001:646 JLINK_WriteReg(R6, 0x00000000)  returns 0x00 (0000ms, 0751ms total)
T1630 001:646 JLINK_WriteReg(R7, 0x00000000)  returns 0x00 (0000ms, 0751ms total)
T1630 001:646 JLINK_WriteReg(R8, 0x00000000)  returns 0x00 (0000ms, 0751ms total)
T1630 001:646 JLINK_WriteReg(R9, 0x20000184)  returns 0x00 (0001ms, 0752ms total)
T1630 001:647 JLINK_WriteReg(R10, 0x00000000)  returns 0x00 (0000ms, 0752ms total)
T1630 001:647 JLINK_WriteReg(R11, 0x00000000)  returns 0x00 (0000ms, 0752ms total)
T1630 001:647 JLINK_WriteReg(R12, 0x00000000)  returns 0x00 (0000ms, 0752ms total)
T1630 001:647 JLINK_WriteReg(R13 (SP), 0x20001000)  returns 0x00 (0000ms, 0752ms total)
T1630 001:647 JLINK_WriteReg(R14, 0x20000001)  returns 0x00 (0000ms, 0752ms total)
T1630 001:647 JLINK_WriteReg(R15 (PC), 0x20000112)  returns 0x00 (0000ms, 0752ms total)
T1630 001:647 JLINK_WriteReg(XPSR, 0x01000000)  returns 0x00 (0000ms, 0752ms total)
T1630 001:647 JLINK_WriteReg(MSP, 0x20001000)  returns 0x00 (0000ms, 0752ms total)
T1630 001:647 JLINK_WriteReg(PSP, 0x20001000)  returns 0x00 (0000ms, 0752ms total)
T1630 001:647 JLINK_WriteReg(CFBP, 0x00000000)  returns 0x00 (0000ms, 0752ms total)
T1630 001:647 JLINK_SetBPEx(Addr = 0x20000000, Type = 0xFFFFFFF2)  returns 0x0000000D (0000ms, 0752ms total)
T1630 001:647 JLINK_Go() (0001ms, 0753ms total)
T1630 001:648 JLINK_IsHalted()  returns FALSE (0001ms, 0754ms total)
T1630 001:652 JLINK_IsHalted()  returns FALSE (0000ms, 0753ms total)
T1630 001:654 JLINK_IsHalted() -- CPU_ReadMem(2 bytes @ 0x20000000)  returns TRUE (0003ms, 0756ms total)
T1630 001:657 JLINK_ReadReg(R15 (PC))  returns 0x20000000 (0000ms, 0753ms total)
T1630 001:657 JLINK_ClrBPEx(BPHandle = 0x0000000D)  returns 0x00 (0000ms, 0753ms total)
T1630 001:657 JLINK_ReadReg(R0)  returns 0x00000000 (0000ms, 0753ms total)
T1630 001:658 JLINK_WriteMem(0x20000188, 0x0400 Bytes, ...) - Data: 94 F8 5A 06 C0 B1 00 20 84 F8 5A 06 00 BF FF F7 ... -- CPU_WriteMem(1024 bytes @ 0x20000188)  returns 0x400 (0013ms, 0766ms total)
T1630 001:671 JLINK_WriteReg(R0, 0x08001400)  returns 0x00 (0000ms, 0766ms total)
T1630 001:671 JLINK_WriteReg(R1, 0x00000400)  returns 0x00 (0000ms, 0766ms total)
T1630 001:671 JLINK_WriteReg(R2, 0x20000188)  returns 0x00 (0000ms, 0766ms total)
T1630 001:671 JLINK_WriteReg(R3, 0x00000000)  returns 0x00 (0000ms, 0766ms total)
T1630 001:671 JLINK_WriteReg(R4, 0x00000000)  returns 0x00 (0000ms, 0766ms total)
T1630 001:671 JLINK_WriteReg(R5, 0x00000000)  returns 0x00 (0000ms, 0766ms total)
T1630 001:671 JLINK_WriteReg(R6, 0x00000000)  returns 0x00 (0000ms, 0766ms total)
T1630 001:671 JLINK_WriteReg(R7, 0x00000000)  returns 0x00 (0000ms, 0766ms total)
T1630 001:671 JLINK_WriteReg(R8, 0x00000000)  returns 0x00 (0000ms, 0766ms total)
T1630 001:671 JLINK_WriteReg(R9, 0x20000184)  returns 0x00 (0000ms, 0766ms total)
T1630 001:671 JLINK_WriteReg(R10, 0x00000000)  returns 0x00 (0000ms, 0766ms total)
T1630 001:671 JLINK_WriteReg(R11, 0x00000000)  returns 0x00 (0000ms, 0766ms total)
T1630 001:671 JLINK_WriteReg(R12, 0x00000000)  returns 0x00 (0000ms, 0766ms total)
T1630 001:671 JLINK_WriteReg(R13 (SP), 0x20001000)  returns 0x00 (0000ms, 0766ms total)
T1630 001:671 JLINK_WriteReg(R14, 0x20000001)  returns 0x00 (0000ms, 0766ms total)
T1630 001:671 JLINK_WriteReg(R15 (PC), 0x20000112)  returns 0x00 (0000ms, 0766ms total)
T1630 001:671 JLINK_WriteReg(XPSR, 0x01000000)  returns 0x00 (0000ms, 0766ms total)
T1630 001:671 JLINK_WriteReg(MSP, 0x20001000)  returns 0x00 (0000ms, 0766ms total)
T1630 001:671 JLINK_WriteReg(PSP, 0x20001000)  returns 0x00 (0000ms, 0766ms total)
T1630 001:671 JLINK_WriteReg(CFBP, 0x00000000)  returns 0x00 (0000ms, 0766ms total)
T1630 001:671 JLINK_SetBPEx(Addr = 0x20000000, Type = 0xFFFFFFF2)  returns 0x0000000E (0000ms, 0766ms total)
T1630 001:671 JLINK_Go() (0002ms, 0768ms total)
T1630 001:673 JLINK_IsHalted()  returns FALSE (0000ms, 0768ms total)
T1630 001:677 JLINK_IsHalted()  returns FALSE (0001ms, 0769ms total)
T1630 001:679 JLINK_IsHalted() -- CPU_ReadMem(2 bytes @ 0x20000000)  returns TRUE (0004ms, 0772ms total)
T1630 001:683 JLINK_ReadReg(R15 (PC))  returns 0x20000000 (0000ms, 0768ms total)
T1630 001:683 JLINK_ClrBPEx(BPHandle = 0x0000000E)  returns 0x00 (0000ms, 0768ms total)
T1630 001:683 JLINK_ReadReg(R0)  returns 0x00000000 (0000ms, 0768ms total)
T1630 001:683 JLINK_WriteMem(0x20000188, 0x0400 Bytes, ...) - Data: 0C 05 4C 46 28 78 02 28 50 D1 68 78 00 28 4D D1 ... -- CPU_WriteMem(1024 bytes @ 0x20000188)  returns 0x400 (0013ms, 0781ms total)
T1630 001:696 JLINK_WriteReg(R0, 0x08001800)  returns 0x00 (0000ms, 0781ms total)
T1630 001:696 JLINK_WriteReg(R1, 0x00000400)  returns 0x00 (0000ms, 0781ms total)
T1630 001:696 JLINK_WriteReg(R2, 0x20000188)  returns 0x00 (0000ms, 0781ms total)
T1630 001:696 JLINK_WriteReg(R3, 0x00000000)  returns 0x00 (0000ms, 0781ms total)
T1630 001:696 JLINK_WriteReg(R4, 0x00000000)  returns 0x00 (0000ms, 0781ms total)
T1630 001:696 JLINK_WriteReg(R5, 0x00000000)  returns 0x00 (0000ms, 0781ms total)
T1630 001:696 JLINK_WriteReg(R6, 0x00000000)  returns 0x00 (0000ms, 0781ms total)
T1630 001:696 JLINK_WriteReg(R7, 0x00000000)  returns 0x00 (0000ms, 0781ms total)
T1630 001:696 JLINK_WriteReg(R8, 0x00000000)  returns 0x00 (0000ms, 0781ms total)
T1630 001:696 JLINK_WriteReg(R9, 0x20000184)  returns 0x00 (0000ms, 0781ms total)
T1630 001:696 JLINK_WriteReg(R10, 0x00000000)  returns 0x00 (0000ms, 0781ms total)
T1630 001:696 JLINK_WriteReg(R11, 0x00000000)  returns 0x00 (0000ms, 0781ms total)
T1630 001:696 JLINK_WriteReg(R12, 0x00000000)  returns 0x00 (0000ms, 0781ms total)
T1630 001:696 JLINK_WriteReg(R13 (SP), 0x20001000)  returns 0x00 (0000ms, 0781ms total)
T1630 001:696 JLINK_WriteReg(R14, 0x20000001)  returns 0x00 (0000ms, 0781ms total)
T1630 001:696 JLINK_WriteReg(R15 (PC), 0x20000112)  returns 0x00 (0000ms, 0781ms total)
T1630 001:696 JLINK_WriteReg(XPSR, 0x01000000)  returns 0x00 (0000ms, 0781ms total)
T1630 001:696 JLINK_WriteReg(MSP, 0x20001000)  returns 0x00 (0000ms, 0781ms total)
T1630 001:696 JLINK_WriteReg(PSP, 0x20001000)  returns 0x00 (0000ms, 0781ms total)
T1630 001:696 JLINK_WriteReg(CFBP, 0x00000000)  returns 0x00 (0000ms, 0781ms total)
T1630 001:696 JLINK_SetBPEx(Addr = 0x20000000, Type = 0xFFFFFFF2)  returns 0x0000000F (0000ms, 0781ms total)
T1630 001:696 JLINK_Go() (0002ms, 0783ms total)
T1630 001:698 JLINK_IsHalted()  returns FALSE (0000ms, 0783ms total)
T1630 001:700 JLINK_IsHalted()  returns FALSE (0000ms, 0783ms total)
T1630 001:702 JLINK_IsHalted()  returns FALSE (0000ms, 0783ms total)
T1630 001:708 JLINK_IsHalted() -- CPU_ReadMem(2 bytes @ 0x20000000)  returns TRUE (0003ms, 0786ms total)
T1630 001:711 JLINK_ReadReg(R15 (PC))  returns 0x20000000 (0000ms, 0783ms total)
T1630 001:711 JLINK_ClrBPEx(BPHandle = 0x0000000F)  returns 0x00 (0000ms, 0783ms total)
T1630 001:711 JLINK_ReadReg(R0)  returns 0x00000000 (0000ms, 0783ms total)
T1630 001:712 JLINK_WriteMem(0x20000188, 0x0400 Bytes, ...) - Data: 1F 49 08 80 20 E0 1E 48 00 88 40 F4 00 40 1C 49 ... -- CPU_WriteMem(1024 bytes @ 0x20000188)  returns 0x400 (0012ms, 0795ms total)
T1630 001:724 JLINK_WriteReg(R0, 0x08001C00)  returns 0x00 (0000ms, 0795ms total)
T1630 001:724 JLINK_WriteReg(R1, 0x00000400)  returns 0x00 (0000ms, 0795ms total)
T1630 001:724 JLINK_WriteReg(R2, 0x20000188)  returns 0x00 (0000ms, 0795ms total)
T1630 001:724 JLINK_WriteReg(R3, 0x00000000)  returns 0x00 (0000ms, 0795ms total)
T1630 001:724 JLINK_WriteReg(R4, 0x00000000)  returns 0x00 (0000ms, 0795ms total)
T1630 001:724 JLINK_WriteReg(R5, 0x00000000)  returns 0x00 (0000ms, 0795ms total)
T1630 001:724 JLINK_WriteReg(R6, 0x00000000)  returns 0x00 (0000ms, 0795ms total)
T1630 001:724 JLINK_WriteReg(R7, 0x00000000)  returns 0x00 (0000ms, 0795ms total)
T1630 001:724 JLINK_WriteReg(R8, 0x00000000)  returns 0x00 (0000ms, 0795ms total)
T1630 001:724 JLINK_WriteReg(R9, 0x20000184)  returns 0x00 (0000ms, 0795ms total)
T1630 001:724 JLINK_WriteReg(R10, 0x00000000)  returns 0x00 (0001ms, 0796ms total)
T1630 001:725 JLINK_WriteReg(R11, 0x00000000)  returns 0x00 (0000ms, 0796ms total)
T1630 001:725 JLINK_WriteReg(R12, 0x00000000)  returns 0x00 (0000ms, 0796ms total)
T1630 001:725 JLINK_WriteReg(R13 (SP), 0x20001000)  returns 0x00 (0000ms, 0796ms total)
T1630 001:725 JLINK_WriteReg(R14, 0x20000001)  returns 0x00 (0000ms, 0796ms total)
T1630 001:725 JLINK_WriteReg(R15 (PC), 0x20000112)  returns 0x00 (0000ms, 0796ms total)
T1630 001:725 JLINK_WriteReg(XPSR, 0x01000000)  returns 0x00 (0000ms, 0796ms total)
T1630 001:725 JLINK_WriteReg(MSP, 0x20001000)  returns 0x00 (0000ms, 0796ms total)
T1630 001:725 JLINK_WriteReg(PSP, 0x20001000)  returns 0x00 (0000ms, 0796ms total)
T1630 001:725 JLINK_WriteReg(CFBP, 0x00000000)  returns 0x00 (0000ms, 0796ms total)
T1630 001:725 JLINK_SetBPEx(Addr = 0x20000000, Type = 0xFFFFFFF2)  returns 0x00000010 (0000ms, 0796ms total)
T1630 001:725 JLINK_Go() (0001ms, 0797ms total)
T1630 001:727 JLINK_IsHalted()  returns FALSE (0000ms, 0798ms total)
T1630 001:729 JLINK_IsHalted()  returns FALSE (0000ms, 0798ms total)
T1630 001:731 JLINK_IsHalted() -- CPU_ReadMem(2 bytes @ 0x20000000)  returns TRUE (0003ms, 0801ms total)
T1630 001:734 JLINK_ReadReg(R15 (PC))  returns 0x20000000 (0000ms, 0798ms total)
